
**** 09/23/18 18:15:54 ******* PSpice Lite (March 2016) ******* ID# 10813 ****

 ** Profile: "SCHEMATIC1-IR_test"  [ c:\users\sokratis koseoglou\documents\cadence\projects\internalresistancecircuit-pspicefiles\sch


 ****     CIRCUIT DESCRIPTION


******************************************************************************




** Creating circuit file "IR_test.cir" 
** WARNING: THIS AUTOMATICALLY GENERATED FILE MAY BE OVERWRITTEN BY SUBSEQUENT SIMULATIONS

*Libraries: 
* Profile Libraries :
* Local Libraries :
* From [PSPICE NETLIST] section of C:\Users\Sokratis Koseoglou\AppData\Roaming\SPB_16.6\cdssetup\OrCAD_PSpice\17.2.0\PSpice.ini file:
.lib "nomd.lib" 

*Analysis directives: 
.TRAN  0 500m 0 0.01m 
.OPTIONS ADVCONV
.PROBE64 V(alias(*)) I(alias(*)) W(alias(*)) D(alias(*)) NOISE(alias(*)) 
.INC "..\SCHEMATIC1.net" 



**** INCLUDING SCHEMATIC1.net ****
* source INTERNALRESISTANCECIRCUIT
V_VCC         N00213 0 9Vdc
V_V_BATT         N00225 0 3.7Vdc
R_Rg         N00217 N00221  8.2 TC=0,0 
R_R_LOAD         0 N00241  150m TC=0,0 
X_M1         N00221 N00241 N00225 BUZ-11
X_U1A         N07249 N00241 N00213 0 N00217 LM358
V_V2         N03728 0 5Vdc
R_R2         N03735 N03728  1.05k TC=0,0 
R_R3         0 N03735  1k TC=0,0 
V_V3         N07249 0 2.4Vdc

**** RESUMING IR_test.cir ****
.END

**** 09/23/18 18:15:54 ******* PSpice Lite (March 2016) ******* ID# 10813 ****

 ** Profile: "SCHEMATIC1-IR_test"  [ c:\users\sokratis koseoglou\documents\cadence\projects\internalresistancecircuit-pspicefiles\sch


 ****     Diode MODEL PARAMETERS


******************************************************************************




               X_M1.DREV       X_M1.DCGD       
          IS  300.000000E-12   10.000000E-15 
          BV   50                            
          RS     .02                         
          TT    4.200000E-09                 
         CJO    1.500000E-09    1.030000E-09 
          VJ                    1.135        
           M                     .537        


               X_U1A.x_lm358.dx 
          IS  800.000000E-18 
          RS    1            


               X_U1A.x_lm358.dy 
          IS  800.000000E-18 
          RS    1.000000E-03 
         CJO   10.000000E-12 


**** 09/23/18 18:15:54 ******* PSpice Lite (March 2016) ******* ID# 10813 ****

 ** Profile: "SCHEMATIC1-IR_test"  [ c:\users\sokratis koseoglou\documents\cadence\projects\internalresistancecircuit-pspicefiles\sch


 ****     BJT MODEL PARAMETERS


******************************************************************************




               X_U1A.x_lm358.qx 
               PNP             
       LEVEL    1            
          IS  800.000000E-18 
          BF  166.7          
          NF    1            
          BR    1            
          NR    1            
         ISS    0            
          RE    0            
          RC    0            
         CJE    0            
         VJE     .75         
         CJC    0            
         VJC     .75         
         MJC     .33         
        XCJC    1            
         CJS    0            
         VJS     .75         
          KF    0            
          AF    1            
          CN    2.2          
           D     .52         


**** 09/23/18 18:15:54 ******* PSpice Lite (March 2016) ******* ID# 10813 ****

 ** Profile: "SCHEMATIC1-IR_test"  [ c:\users\sokratis koseoglou\documents\cadence\projects\internalresistancecircuit-pspicefiles\sch


 ****     MOSFET MODEL PARAMETERS


******************************************************************************




               X_M1.MBUZ       X_M1.MSW        X_M1.MVRD       
               NMOS            NMOS            NMOS            
       LEVEL    1               1               1            
           L  100.000000E-06  100.000000E-06  100.000000E-06 
           W  100.000000E-06  100.000000E-06  100.000000E-06 
         VTO    3.315           1.000000E-03  -15.6          
          KP   24.41            5              10.5          
       GAMMA    0               0               0            
         PHI     .6              .6              .6          
      LAMBDA    0               0               0            
          IS   10.000000E-15   10.000000E-15   10.000000E-15 
          JS    0               0               0            
          PB     .8              .8              .8          
        PBSW     .8              .8              .8          
          CJ    0               0               0            
        CJSW    0               0               0            
        CGSO    0               0               0            
        CGDO    0               0               0            
        CGBO    0               0               0            
         TOX    0               0               0            
          XJ    0               0               0            
       UCRIT   10.000000E+03   10.000000E+03   10.000000E+03 
      DIOMOD    1               1               1            
         VFB    0               0               0            
        LETA    0               0               0            
        WETA    0               0               0            
          U0    0               0               0            
        TEMP    0               0               0            
         VDD    5               5               5            
       XPART    0               0               0            


**** 09/23/18 18:15:54 ******* PSpice Lite (March 2016) ******* ID# 10813 ****

 ** Profile: "SCHEMATIC1-IR_test"  [ c:\users\sokratis koseoglou\documents\cadence\projects\internalresistancecircuit-pspicefiles\sch


 ****     Current Controlled Switch MODEL PARAMETERS


******************************************************************************




               X_U1A.x_lm358.sw2 
         RON    1            
        ROFF   10.000000E+06 
         ION    0            
        IOFF   -1.000000E-06 


               X_U1A.x_lm358.sw1 
         RON    1            
        ROFF   10.000000E+06 
         ION   -1.000000E-06 
        IOFF    0            


               X_U1A.x_lm358.sw3 
         RON    1            
        ROFF   10.000000E+06 
         ION   -1.000000E-06 
        IOFF    0            


               X_U1A.x_lm358.sw4 
         RON    1            
        ROFF   10.000000E+06 
         ION    0            
        IOFF   -1.000000E-06 


**** 09/23/18 18:15:54 ******* PSpice Lite (March 2016) ******* ID# 10813 ****

 ** Profile: "SCHEMATIC1-IR_test"  [ c:\users\sokratis koseoglou\documents\cadence\projects\internalresistancecircuit-pspicefiles\sch


 ****     INITIAL TRANSIENT SOLUTION       TEMPERATURE =   27.000 DEG C


******************************************************************************



 NODE   VOLTAGE     NODE   VOLTAGE     NODE   VOLTAGE     NODE   VOLTAGE


(N00213)    9.0000 (N00217)    7.2640 (N00221)    7.2640 (N00225)    3.7000     

(N00241)    2.4004 (N03728)    5.0000 (N03735)    2.4390 (N07249)    2.4000     

(X_M1.4)    7.2640 (X_M1.5)    2.4004 (X_M1.8)    3.6020 (X_M1.11)    7.2640    

(X_M1.76)    2.7525                   (X_M1.86)    3.7000                       

(X_M1.95)    3.6020                   (X_U1A.x_lm358.6)-521.0E-06               

(X_U1A.x_lm358.7)    7.2640           (X_U1A.x_lm358.8)    7.2640               

(X_U1A.x_lm358.9)    0.0000           (X_U1A.x_lm358.a)    9.0000               

(X_U1A.x_lm358.b)-10.89E-12           (X_U1A.x_lm358.10)    3.0083              

(X_U1A.x_lm358.11)     .0399          (X_U1A.x_lm358.12)     .0403              

(X_U1A.x_lm358.13)    2.9944          (X_U1A.x_lm358.14)    2.9942              

(X_U1A.x_lm358.53)    7.5000          (X_U1A.x_lm358.54)     .8220              

(X_U1A.x_lm358.90) 10.89E-09          (X_U1A.x_lm358.91)   40.0000              

(X_U1A.x_lm358.92)  -40.0000          (X_U1A.x_lm358.99)    4.5000          




    VOLTAGE SOURCE CURRENTS
    NAME         CURRENT

    V_VCC       -1.007E-03
    V_V_BATT    -1.600E+01
    V_V2        -2.439E-03
    V_V3         4.558E-08
    X_U1A.x_lm358.vb  -5.210E-09
    X_U1A.x_lm358.vc   2.368E-13
    X_U1A.x_lm358.ve   6.330E-12
    X_U1A.x_lm358.vlim   1.089E-11
    X_U1A.x_lm358.vlp  -4.000E-11
    X_U1A.x_lm358.vln  -4.000E-11

    TOTAL POWER DISSIPATION   5.92E+01  WATTS



          JOB CONCLUDED

**** 09/23/18 18:15:54 ******* PSpice Lite (March 2016) ******* ID# 10813 ****

 ** Profile: "SCHEMATIC1-IR_test"  [ c:\users\sokratis koseoglou\documents\cadence\projects\internalresistancecircuit-pspicefiles\sch


 ****     JOB STATISTICS SUMMARY


******************************************************************************



  Total job time (using Solver 1)   =        7.91
